     0  1  2  3  4  5  6  7  8  9  a  b  c  d  e  f    0123456789abcdef
00: 00 00 00 00 00 00 00 00 00 00 00 00 00 00 00 68    ...............h
10: b8 00 00 b8 00 89 ff 02 e4 ff d4 ff cb ff 38 38    ?..?.?.??.?.?.88
20: 28 00 04 00 00 00 00 07 e8 ff 81 fe b7 fa 00 00    (.?....??.????..
30: 00 00 00 00 00 00 00 00 00 00 00 00 00 00 00 00    ................
40: 54 51 a0 24 2d ad e2 40 80 c0 35 10 9b 7a 07 40    TQ?$-??@??5??z?@
50: 39 1b 48 80 bf bf 88 87 92 0d 48 06 b2 0b 09 be    9?H???????H?????
60: e4 40 c6 01 07 00 83 16 07 02 83 c2 a0 40 2b 20    ?@???.???????@+ 
70: 45 71 00 00 80 68 66 06 02 00 00 00 00 40 c0 00    Eq..?hf??....@?.
80: 00 00 00 00 00 00 00 00 00 00 00 00 00 00 00 00    ................
90: 00 00 00 80 00 00 f8 60 e6 ff d6 ff c9 ff 00 00    ...?..?`?.?.?...
a0: 00 00 00 00 00 00 00 00 e6 ff 80 fe b1 fa 00 00    ........?.????..
b0: 00 00 00 00 00 00 00 00 00 00 00 00 00 00 00 00    ................
c0: 00 00 00 00 02 3c 24 4c 1c 22 00 00 00 00 00 00    ....?<$L?"......
d0: 00 00 00 00 ff 01 00 00 00 00 00 00 00 00 00 00    .....?..........
e0: 07 00 00 00 07 00 00 00 00 10 00 00 00 00 00 00    ?...?....?......
f0: 00 00 00 00 00 00 00 00 00 00 00 00 00 00 00 a0    ...............?
