     0  1  2  3  4  5  6  7  8  9  a  b  c  d  e  f    0123456789abcdef
00: 00 00 00 00 00 00 00 00 00 00 00 00 00 00 00 3d    ...............=
10: d4 03 50 67 55 52 10 c5 8d 0d 03 a0 00 00 02 10    ??PgUR??????..??
20: 9c 40 00 00 00 00 00 ff 64 02 0a 00 6f 03 19 00    ?@......d??.o??.
30: e8 00 00 00 00 00 00 00 00 00 00 00 00 00 00 00    ?...............
40: 00 00 00 00 00 00 00 00 00 00 00 00 00 00 00 00    ................
50: 00 00 00 00 00 00 00 00 00 00 00 00 00 00 00 00    ................
60: 00 00 00 00 00 00 00 00 00 00 00 00 00 00 00 00    ................
70: 00 00 00 00 00 00 00 00 00 00 00 00 00 00 00 00    ................
80: 00 00 00 00 00 00 00 00 00 00 00 00 00 00 00 3d    ...............=
90: d4 03 50 67 55 52 10 c5 8d 0d 03 a0 00 00 02 10    ??PgUR??????..??
a0: 9c 40 00 00 00 00 00 bf 62 02 e5 ff 7d 03 19 00    ?@.....?b??.}??.
b0: e8 00 00 00 00 00 00 00 00 00 00 00 00 00 00 00    ?...............
c0: 00 00 00 00 00 00 00 00 00 00 00 00 00 00 00 00    ................
d0: 00 00 00 00 00 00 00 00 00 00 00 00 00 00 00 00    ................
e0: 00 00 00 00 00 00 00 00 00 00 00 00 00 00 00 00    ................
f0: 00 00 00 00 00 00 00 00 00 00 00 00 00 00 00 00    ................
